# vsim -cvgperinstance -vopt -voptargs="+acc" -coverage -sva -c -do "log -r /* ; coverage save -onexit uart_cov2 ; run -all ; exit" -wlf wave_file2.wlf -l test2.log -sv_seed random work.top "+UVM_TESTNAME=fd_test" 
# Start time: 10:44:48 on Apr 28,2026
# ** Note: (vsim-8009) Loading existing optimized design _opt
# Loading sv_std.std
# Loading work.uart_if(fast)
# Loading mtiUvm.uvm_pkg
# Loading work.test_pkg(fast)
# Loading work.top(fast)
# Loading work.uart_if(fast)
# Loading work.uart_top(fast)
# Loading work.uart_wb(fast)
# Loading work.uart_regs(fast)
# Loading work.uart_transmitter(fast)
# Loading work.uart_tfifo(fast)
# Loading work.raminfr(fast)
# Loading work.uart_sync_flops(fast)
# Loading work.uart_receiver(fast)
# Loading work.uart_rfifo(fast)
# Loading mtiUvm.questa_uvm_pkg(fast)
# Loading C:/questasim64_10.7c/uvm-1.1d\win64\uvm_dpi.dll
# ** Warning: (vsim-8634) Code was not compiled with coverage options.
# Sv_Seed = 539522917
# log -r /* 
#  coverage save -onexit uart_cov2 
#  run -all 
# ----------------------------------------------------------------
# UVM-1.1d
# (C) 2007-2013 Mentor Graphics Corporation
# (C) 2007-2013 Cadence Design Systems, Inc.
# (C) 2006-2013 Synopsys, Inc.
# (C) 2011-2013 Cypress Semiconductor Corp.
# ----------------------------------------------------------------
# 
#   ***********       IMPORTANT RELEASE NOTES         ************
# 
#   You are using a version of the UVM library that has been compiled
#   with `UVM_NO_DEPRECATED undefined.
#   See http://www.eda.org/svdb/view.php?id=3313 for more details.
# 
#   You are using a version of the UVM library that has been compiled
#   with `UVM_OBJECT_MUST_HAVE_CONSTRUCTOR undefined.
#   See http://www.eda.org/svdb/view.php?id=3770 for more details.
# 
#       (Specify +UVM_NO_RELNOTES to turn off this notice)
# 
# UVM_INFO verilog_src/questa_uvm_pkg-1.2/src/questa_uvm_pkg.sv(215) @ 0: reporter [Questa UVM] QUESTA_UVM-1.2.3
# UVM_INFO verilog_src/questa_uvm_pkg-1.2/src/questa_uvm_pkg.sv(216) @ 0: reporter [Questa UVM]  questa_uvm::init(+struct)
# (top.DUT1) UART INFO: Data bus width is 8. No Debug interface.
# 
# (top.DUT1) UART INFO: Has baudrate output
# 
# (top.DUT2) UART INFO: Data bus width is 8. No Debug interface.
# 
# (top.DUT2) UART INFO: Has baudrate output
# 
# UVM_INFO @ 0: reporter [RNTST] Running test fd_test...
# UVM_INFO @ 0: reporter [UVMTOP] UVM testbench topology:
# --------------------------------------------------------------------
# Name                         Type                        Size  Value
# --------------------------------------------------------------------
# uvm_test_top                 fd_test                     -     @475 
#   env_h                      env                         -     @491 
#     agt_top_h                agt_top                     -     @499 
#       agt_h[0]               agt                         -     @628 
#         drv_h                drv                         -     @660 
#           rsp_port           uvm_analysis_port           -     @675 
#           seq_item_port      uvm_seq_item_pull_port      -     @667 
#         mon_h                mon                         -     @645 
#           monitor_port       uvm_analysis_port           -     @652 
#         seqrh                seqr                        -     @683 
#           rsp_export         uvm_analysis_export         -     @690 
#           seq_item_export    uvm_seq_item_pull_imp       -     @784 
#           arbitration_queue  array                       0     -    
#           lock_queue         array                       0     -    
#           num_last_reqs      integral                    32    'd1  
#           num_last_rsps      integral                    32    'd1  
#       agt_h[1]               agt                         -     @636 
#         drv_h                drv                         -     @816 
#           rsp_port           uvm_analysis_port           -     @831 
#           seq_item_port      uvm_seq_item_pull_port      -     @823 
#         mon_h                mon                         -     @801 
#           monitor_port       uvm_analysis_port           -     @808 
#         seqrh                seqr                        -     @839 
#           rsp_export         uvm_analysis_export         -     @846 
#           seq_item_export    uvm_seq_item_pull_imp       -     @940 
#           arbitration_queue  array                       0     -    
#           lock_queue         array                       0     -    
#           num_last_reqs      integral                    32    'd1  
#           num_last_rsps      integral                    32    'd1  
#     sb                       scoreboard                  -     @615 
#       fifo_h[0]*             uvm_tlm_analysis_fifo #(T)  -     @956 
#         analysis_export      uvm_analysis_imp            -     @995 
#         get_ap               uvm_analysis_port           -     @987 
#         get_peek_export      uvm_get_peek_imp            -     @971 
#         put_ap               uvm_analysis_port           -     @979 
#         put_export           uvm_put_imp                 -     @963 
#       fifo_h[1]*             uvm_tlm_analysis_fifo #(T)  -     @1003
#         analysis_export      uvm_analysis_imp            -     @1042
#         get_ap               uvm_analysis_port           -     @1034
#         get_peek_export      uvm_get_peek_imp            -     @1018
#         put_ap               uvm_analysis_port           -     @1026
#         put_export           uvm_put_imp                 -     @1010
#     v_seqr_h                 v_seqr                      -     @506 
#       rsp_export             uvm_analysis_export         -     @513 
#       seq_item_export        uvm_seq_item_pull_imp       -     @607 
#       arbitration_queue      array                       0     -    
#       lock_queue             array                       0     -    
#       num_last_reqs          integral                    32    'd1  
#       num_last_rsps          integral                    32    'd1  
# --------------------------------------------------------------------
# 
# before objection raised
# UVM_INFO ../agt_top/mon.sv(93) @ 5500: uvm_test_top.env_h.agt_top_h.agt_h[0].mon_h [mon] received data 
#  -------------------------------------------------------------------
# Name             Type      Size  Value                             
# -------------------------------------------------------------------
# xtn_h            xtn       -     @1079                             
#   PRESETn        integral  1     1                                 
#   PSEL           integral  1     1                                 
#   PREADY         integral  1     1                                 
#   PENABLE        integral  1     1                                 
#   PWDATA         integral  8     128                               
#   PADDR          integral  3     'd3                               
#   PWRITE         integral  1     1                                 
#   PRDATA         integral  8     'd3                               
#   PSTRB          integral  4     'd1                               
#   PSLVERR        integral  1     'd0                               
#   FRAME_ERROR    integral  1     'd0                               
#   OVERRUN_ERROR  integral  1     'd0                               
#   PARITY_ERROR   integral  1     'd0                               
#   LCR            integral  8     128                               
#   MCR            integral  8     'd0                               
#   MSR            integral  8     'd0                               
#   LSR            integral  8     'b0                               
#   FCR            integral  8     'd0                               
#   IIR            integral  8     'd0                               
#   IER            integral  8     'd0                               
#   DL1            integral  8     'd0                               
#   DL2            integral  8     'd0                               
#   wb_dat32_o     integral  32    'b10000000000000000000000000000000
# -------------------------------------------------------------------
# 
# -------------------------------------------------------------------
# Name             Type      Size  Value                             
# -------------------------------------------------------------------
# xtn_h            xtn       -     @1079                             
#   PRESETn        integral  1     1                                 
#   PSEL           integral  1     1                                 
#   PREADY         integral  1     1                                 
#   PENABLE        integral  1     1                                 
#   PWDATA         integral  8     128                               
#   PADDR          integral  3     'd3                               
#   PWRITE         integral  1     1                                 
#   PRDATA         integral  8     'd3                               
#   PSTRB          integral  4     'd1                               
#   PSLVERR        integral  1     'd0                               
#   FRAME_ERROR    integral  1     'd0                               
#   OVERRUN_ERROR  integral  1     'd0                               
#   PARITY_ERROR   integral  1     'd0                               
#   LCR            integral  8     128                               
#   MCR            integral  8     'd0                               
#   MSR            integral  8     'd0                               
#   LSR            integral  8     'b0                               
#   FCR            integral  8     'd0                               
#   IIR            integral  8     'd0                               
#   IER            integral  8     'd0                               
#   DL1            integral  8     'd0                               
#   DL2            integral  8     'd0                               
#   wb_dat32_o     integral  32    'b10000000000000000000000000000000
# -------------------------------------------------------------------
# UVM_INFO ../agt_top/mon.sv(93) @ 9500: uvm_test_top.env_h.agt_top_h.agt_h[0].mon_h [mon] received data 
#  -------------------------------------------------------------------
# Name             Type      Size  Value                             
# -------------------------------------------------------------------
# xtn_h            xtn       -     @1079                             
#   PRESETn        integral  1     1                                 
#   PSEL           integral  1     1                                 
#   PREADY         integral  1     1                                 
#   PENABLE        integral  1     1                                 
#   PWDATA         integral  8     'd0                               
#   PADDR          integral  3     'd1                               
#   PWRITE         integral  1     1                                 
#   PRDATA         integral  8     'd0                               
#   PSTRB          integral  4     'd1                               
#   PSLVERR        integral  1     'd0                               
#   FRAME_ERROR    integral  1     'd0                               
#   OVERRUN_ERROR  integral  1     'd0                               
#   PARITY_ERROR   integral  1     'd0                               
#   LCR            integral  8     128                               
#   MCR            integral  8     'd0                               
#   MSR            integral  8     'd0                               
#   LSR            integral  8     'b0                               
#   FCR            integral  8     'd0                               
#   IIR            integral  8     'd0                               
#   IER            integral  8     'd0                               
#   DL1            integral  8     'd0                               
#   DL2            integral  8     'd0                               
#   wb_dat32_o     integral  32    'b10000000000000000000000000000000
# -------------------------------------------------------------------
# 
# -------------------------------------------------------------------
# Name             Type      Size  Value                             
# -------------------------------------------------------------------
# xtn_h            xtn       -     @1079                             
#   PRESETn        integral  1     1                                 
#   PSEL           integral  1     1                                 
#   PREADY         integral  1     1                                 
#   PENABLE        integral  1     1                                 
#   PWDATA         integral  8     'd0                               
#   PADDR          integral  3     'd1                               
#   PWRITE         integral  1     1                                 
#   PRDATA         integral  8     'd0                               
#   PSTRB          integral  4     'd1                               
#   PSLVERR        integral  1     'd0                               
#   FRAME_ERROR    integral  1     'd0                               
#   OVERRUN_ERROR  integral  1     'd0                               
#   PARITY_ERROR   integral  1     'd0                               
#   LCR            integral  8     128                               
#   MCR            integral  8     'd0                               
#   MSR            integral  8     'd0                               
#   LSR            integral  8     'b0                               
#   FCR            integral  8     'd0                               
#   IIR            integral  8     'd0                               
#   IER            integral  8     'd0                               
#   DL1            integral  8     'd0                               
#   DL2            integral  8     'd0                               
#   wb_dat32_o     integral  32    'b10000000000000000000000000000000
# -------------------------------------------------------------------
# UVM_INFO ../agt_top/mon.sv(93) @ 11000: uvm_test_top.env_h.agt_top_h.agt_h[1].mon_h [mon] received data 
#  -------------------------------------------------------------------
# Name             Type      Size  Value                             
# -------------------------------------------------------------------
# xtn_h            xtn       -     @1073                             
#   PRESETn        integral  1     1                                 
#   PSEL           integral  1     1                                 
#   PREADY         integral  1     1                                 
#   PENABLE        integral  1     1                                 
#   PWDATA         integral  8     128                               
#   PADDR          integral  3     'd3                               
#   PWRITE         integral  1     1                                 
#   PRDATA         integral  8     'd3                               
#   PSTRB          integral  4     'd1                               
#   PSLVERR        integral  1     'd0                               
#   FRAME_ERROR    integral  1     'd0                               
#   OVERRUN_ERROR  integral  1     'd0                               
#   PARITY_ERROR   integral  1     'd0                               
#   LCR            integral  8     128                               
#   MCR            integral  8     'd0                               
#   MSR            integral  8     'd0                               
#   LSR            integral  8     'b0                               
#   FCR            integral  8     'd0                               
#   IIR            integral  8     'd0                               
#   IER            integral  8     'd0                               
#   DL1            integral  8     'd0                               
#   DL2            integral  8     'd0                               
#   wb_dat32_o     integral  32    'b10000000000000000000000000000000
# -------------------------------------------------------------------
# 
# -------------------------------------------------------------------
# Name             Type      Size  Value                             
# -------------------------------------------------------------------
# xtn_h            xtn       -     @1073                             
#   PRESETn        integral  1     1                                 
#   PSEL           integral  1     1                                 
#   PREADY         integral  1     1                                 
#   PENABLE        integral  1     1                                 
#   PWDATA         integral  8     128                               
#   PADDR          integral  3     'd3                               
#   PWRITE         integral  1     1                                 
#   PRDATA         integral  8     'd3                               
#   PSTRB          integral  4     'd1                               
#   PSLVERR        integral  1     'd0                               
#   FRAME_ERROR    integral  1     'd0                               
#   OVERRUN_ERROR  integral  1     'd0                               
#   PARITY_ERROR   integral  1     'd0                               
#   LCR            integral  8     128                               
#   MCR            integral  8     'd0                               
#   MSR            integral  8     'd0                               
#   LSR            integral  8     'b0                               
#   FCR            integral  8     'd0                               
#   IIR            integral  8     'd0                               
#   IER            integral  8     'd0                               
#   DL1            integral  8     'd0                               
#   DL2            integral  8     'd0                               
#   wb_dat32_o     integral  32    'b10000000000000000000000000000000
# -------------------------------------------------------------------
# UVM_INFO ../agt_top/mon.sv(93) @ 13500: uvm_test_top.env_h.agt_top_h.agt_h[0].mon_h [mon] received data 
#  -------------------------------------------------------------------
# Name             Type      Size  Value                             
# -------------------------------------------------------------------
# xtn_h            xtn       -     @1079                             
#   PRESETn        integral  1     1                                 
#   PSEL           integral  1     1                                 
#   PREADY         integral  1     1                                 
#   PENABLE        integral  1     1                                 
#   PWDATA         integral  8     'd54                              
#   PADDR          integral  3     'd0                               
#   PWRITE         integral  1     1                                 
#   PRDATA         integral  8     'd0                               
#   PSTRB          integral  4     'd1                               
#   PSLVERR        integral  1     'd0                               
#   FRAME_ERROR    integral  1     'd0                               
#   OVERRUN_ERROR  integral  1     'd0                               
#   PARITY_ERROR   integral  1     'd0                               
#   LCR            integral  8     128                               
#   MCR            integral  8     'd0                               
#   MSR            integral  8     'd0                               
#   LSR            integral  8     'b0                               
#   FCR            integral  8     'd0                               
#   IIR            integral  8     'd0                               
#   IER            integral  8     'd0                               
#   DL1            integral  8     'd0                               
#   DL2            integral  8     'd0                               
#   wb_dat32_o     integral  32    'b10000000000000000000000000000000
# -------------------------------------------------------------------
# 
# -------------------------------------------------------------------
# Name             Type      Size  Value                             
# -------------------------------------------------------------------
# xtn_h            xtn       -     @1079                             
#   PRESETn        integral  1     1                                 
#   PSEL           integral  1     1                                 
#   PREADY         integral  1     1                                 
#   PENABLE        integral  1     1                                 
#   PWDATA         integral  8     'd54                              
#   PADDR          integral  3     'd0                               
#   PWRITE         integral  1     1                                 
#   PRDATA         integral  8     'd0                               
#   PSTRB          integral  4     'd1                               
#   PSLVERR        integral  1     'd0                               
#   FRAME_ERROR    integral  1     'd0                               
#   OVERRUN_ERROR  integral  1     'd0                               
#   PARITY_ERROR   integral  1     'd0                               
#   LCR            integral  8     128                               
#   MCR            integral  8     'd0                               
#   MSR            integral  8     'd0                               
#   LSR            integral  8     'b0                               
#   FCR            integral  8     'd0                               
#   IIR            integral  8     'd0                               
#   IER            integral  8     'd0                               
#   DL1            integral  8     'd0                               
#   DL2            integral  8     'd0                               
#   wb_dat32_o     integral  32    'b10000000000000000000000000000000
# -------------------------------------------------------------------
# UVM_INFO ../agt_top/mon.sv(93) @ 17500: uvm_test_top.env_h.agt_top_h.agt_h[0].mon_h [mon] received data 
#  -------------------------------------------------------------
# Name             Type      Size  Value                       
# -------------------------------------------------------------
# xtn_h            xtn       -     @1079                       
#   PRESETn        integral  1     1                           
#   PSEL           integral  1     1                           
#   PREADY         integral  1     1                           
#   PENABLE        integral  1     1                           
#   PWDATA         integral  8     'd3                         
#   PADDR          integral  3     'd3                         
#   PWRITE         integral  1     1                           
#   PRDATA         integral  8     128                         
#   PSTRB          integral  4     'd1                         
#   PSLVERR        integral  1     'd0                         
#   FRAME_ERROR    integral  1     'd0                         
#   OVERRUN_ERROR  integral  1     'd0                         
#   PARITY_ERROR   integral  1     'd0                         
#   LCR            integral  8     'd3                         
#   MCR            integral  8     'd0                         
#   MSR            integral  8     'd0                         
#   LSR            integral  8     'b0                         
#   FCR            integral  8     'd0                         
#   IIR            integral  8     'd0                         
#   IER            integral  8     'd0                         
#   DL1            integral  8     'd0                         
#   DL2            integral  8     'd0                         
#   wb_dat32_o     integral  32    'b11000000000000000000000000
# -------------------------------------------------------------
# 
# -------------------------------------------------------------
# Name             Type      Size  Value                       
# -------------------------------------------------------------
# xtn_h            xtn       -     @1079                       
#   PRESETn        integral  1     1                           
#   PSEL           integral  1     1                           
#   PREADY         integral  1     1                           
#   PENABLE        integral  1     1                           
#   PWDATA         integral  8     'd3                         
#   PADDR          integral  3     'd3                         
#   PWRITE         integral  1     1                           
#   PRDATA         integral  8     128                         
#   PSTRB          integral  4     'd1                         
#   PSLVERR        integral  1     'd0                         
#   FRAME_ERROR    integral  1     'd0                         
#   OVERRUN_ERROR  integral  1     'd0                         
#   PARITY_ERROR   integral  1     'd0                         
#   LCR            integral  8     'd3                         
#   MCR            integral  8     'd0                         
#   MSR            integral  8     'd0                         
#   LSR            integral  8     'b0                         
#   FCR            integral  8     'd0                         
#   IIR            integral  8     'd0                         
#   IER            integral  8     'd0                         
#   DL1            integral  8     'd0                         
#   DL2            integral  8     'd0                         
#   wb_dat32_o     integral  32    'b11000000000000000000000000
# -------------------------------------------------------------
# UVM_INFO ../agt_top/mon.sv(93) @ 19000: uvm_test_top.env_h.agt_top_h.agt_h[1].mon_h [mon] received data 
#  -------------------------------------------------------------------
# Name             Type      Size  Value                             
# -------------------------------------------------------------------
# xtn_h            xtn       -     @1073                             
#   PRESETn        integral  1     1                                 
#   PSEL           integral  1     1                                 
#   PREADY         integral  1     1                                 
#   PENABLE        integral  1     1                                 
#   PWDATA         integral  8     'd0                               
#   PADDR          integral  3     'd1                               
#   PWRITE         integral  1     1                                 
#   PRDATA         integral  8     'd0                               
#   PSTRB          integral  4     'd1                               
#   PSLVERR        integral  1     'd0                               
#   FRAME_ERROR    integral  1     'd0                               
#   OVERRUN_ERROR  integral  1     'd0                               
#   PARITY_ERROR   integral  1     'd0                               
#   LCR            integral  8     128                               
#   MCR            integral  8     'd0                               
#   MSR            integral  8     'd0                               
#   LSR            integral  8     'b0                               
#   FCR            integral  8     'd0                               
#   IIR            integral  8     'd0                               
#   IER            integral  8     'd0                               
#   DL1            integral  8     'd0                               
#   DL2            integral  8     'd0                               
#   wb_dat32_o     integral  32    'b10000000000000000000000000000000
# -------------------------------------------------------------------
# 
# UVM_INFO ../agt_top/mon.sv(93) @ 21500: uvm_test_top.env_h.agt_top_h.agt_h[0].mon_h [mon] received data 
#  -------------------------------------------------------------
# Name             Type      Size  Value                       
# -------------------------------------------------------------
# xtn_h            xtn       -     @1079                       
#   PRESETn        integral  1     1                           
#   PSEL           integral  1     1                           
#   PREADY         integral  1     1                           
#   PENABLE        integral  1     1                           
#   PWDATA         integral  8     'd1                         
#   PADDR          integral  3     'd1                         
#   PWRITE         integral  1     1                           
#   PRDATA         integral  8     'd0                         
#   PSTRB          integral  4     'd1                         
#   PSLVERR        integral  1     'd0                         
#   FRAME_ERROR    integral  1     'd0                         
#   OVERRUN_ERROR  integral  1     'd0                         
#   PARITY_ERROR   integral  1     'd0                         
#   LCR            integral  8     'd3                         
#   MCR            integral  8     'd0                         
#   MSR            integral  8     'd0                         
#   LSR            integral  8     'b0                         
#   FCR            integral  8     'd0                         
#   IIR            integral  8     'd0                         
#   IER            integral  8     'd1                         
#   DL1            integral  8     'd0                         
#   DL2            integral  8     'd0                         
#   wb_dat32_o     integral  32    'b11000000000000000100000000
# -------------------------------------------------------------
# 
# -------------------------------------------------------------
# Name             Type      Size  Value                       
# -------------------------------------------------------------
# xtn_h            xtn       -     @1079                       
#   PRESETn        integral  1     1                           
#   PSEL           integral  1     1                           
#   PREADY         integral  1     1                           
#   PENABLE        integral  1     1                           
#   PWDATA         integral  8     'd1                         
#   PADDR          integral  3     'd1                         
#   PWRITE         integral  1     1                           
#   PRDATA         integral  8     'd0                         
#   PSTRB          integral  4     'd1                         
#   PSLVERR        integral  1     'd0                         
#   FRAME_ERROR    integral  1     'd0                         
#   OVERRUN_ERROR  integral  1     'd0                         
#   PARITY_ERROR   integral  1     'd0                         
#   LCR            integral  8     'd3                         
#   MCR            integral  8     'd0                         
#   MSR            integral  8     'd0                         
#   LSR            integral  8     'b0                         
#   FCR            integral  8     'd0                         
#   IIR            integral  8     'd0                         
#   IER            integral  8     'd1                         
#   DL1            integral  8     'd0                         
#   DL2            integral  8     'd0                         
#   wb_dat32_o     integral  32    'b11000000000000000100000000
# -------------------------------------------------------------
# UVM_INFO ../agt_top/mon.sv(93) @ 25500: uvm_test_top.env_h.agt_top_h.agt_h[0].mon_h [mon] received data 
#  -------------------------------------------------------------
# Name             Type      Size  Value                       
# -------------------------------------------------------------
# xtn_h            xtn       -     @1079                       
#   PRESETn        integral  1     1                           
#   PSEL           integral  1     1                           
#   PREADY         integral  1     1                           
#   PENABLE        integral  1     1                           
#   PWDATA         integral  8     'd6                         
#   PADDR          integral  3     'd2                         
#   PWRITE         integral  1     1                           
#   PRDATA         integral  8     193                         
#   PSTRB          integral  4     'd1                         
#   PSLVERR        integral  1     'd0                         
#   FRAME_ERROR    integral  1     'd0                         
#   OVERRUN_ERROR  integral  1     'd0                         
#   PARITY_ERROR   integral  1     'd0                         
#   LCR            integral  8     'd3                         
#   MCR            integral  8     'd0                         
#   MSR            integral  8     'd0                         
#   LSR            integral  8     'b0                         
#   FCR            integral  8     'd6                         
#   IIR            integral  8     'd0                         
#   IER            integral  8     'd1                         
#   DL1            integral  8     'd0                         
#   DL2            integral  8     'd0                         
#   wb_dat32_o     integral  32    'b11000000000000000100000000
# -------------------------------------------------------------
# 
# -------------------------------------------------------------
# Name             Type      Size  Value                       
# -------------------------------------------------------------
# xtn_h            xtn       -     @1079                       
#   PRESETn        integral  1     1                           
#   PSEL           integral  1     1                           
#   PREADY         integral  1     1                           
#   PENABLE        integral  1     1                           
#   PWDATA         integral  8     'd6                         
#   PADDR          integral  3     'd2                         
#   PWRITE         integral  1     1                           
#   PRDATA         integral  8     193                         
#   PSTRB          integral  4     'd1                         
#   PSLVERR        integral  1     'd0                         
#   FRAME_ERROR    integral  1     'd0                         
#   OVERRUN_ERROR  integral  1     'd0                         
#   PARITY_ERROR   integral  1     'd0                         
#   LCR            integral  8     'd3                         
#   MCR            integral  8     'd0                         
#   MSR            integral  8     'd0                         
#   LSR            integral  8     'b0                         
#   FCR            integral  8     'd6                         
#   IIR            integral  8     'd0                         
#   IER            integral  8     'd1                         
#   DL1            integral  8     'd0                         
#   DL2            integral  8     'd0                         
#   wb_dat32_o     integral  32    'b11000000000000000100000000
# -------------------------------------------------------------
# UVM_INFO ../agt_top/mon.sv(93) @ 27000: uvm_test_top.env_h.agt_top_h.agt_h[1].mon_h [mon] received data 
#  -------------------------------------------------------------------
# Name             Type      Size  Value                             
# -------------------------------------------------------------------
# xtn_h            xtn       -     @1073                             
#   PRESETn        integral  1     1                                 
#   PSEL           integral  1     1                                 
#   PREADY         integral  1     1                                 
#   PENABLE        integral  1     1                                 
#   PWDATA         integral  8     'd26                              
#   PADDR          integral  3     'd0                               
#   PWRITE         integral  1     1                                 
#   PRDATA         integral  8     'd0                               
#   PSTRB          integral  4     'd1                               
#   PSLVERR        integral  1     'd0                               
#   FRAME_ERROR    integral  1     'd0                               
#   OVERRUN_ERROR  integral  1     'd0                               
#   PARITY_ERROR   integral  1     'd0                               
#   LCR            integral  8     128                               
#   MCR            integral  8     'd0                               
#   MSR            integral  8     'd0                               
#   LSR            integral  8     'b0                               
#   FCR            integral  8     'd0                               
#   IIR            integral  8     'd0                               
#   IER            integral  8     'd0                               
#   DL1            integral  8     'd0                               
#   DL2            integral  8     'd0                               
#   wb_dat32_o     integral  32    'b10000000000000000000000000000000
# -------------------------------------------------------------------
# 
# UVM_INFO ../agt_top/mon.sv(93) @ 29500: uvm_test_top.env_h.agt_top_h.agt_h[0].mon_h [mon] received data 
#  -------------------------------------------------------------
# Name             Type      Size  Value                       
# -------------------------------------------------------------
# xtn_h            xtn       -     @1079                       
#   PRESETn        integral  1     1                           
#   PSEL           integral  1     1                           
#   PREADY         integral  1     1                           
#   PENABLE        integral  1     1                           
#   PWDATA         integral  8     'd7                         
#   PADDR          integral  3     'd0                         
#   PWRITE         integral  1     1                           
#   PRDATA         integral  8     'dX                         
#   PSTRB          integral  4     'd1                         
#   PSLVERR        integral  1     'd0                         
#   FRAME_ERROR    integral  1     'd0                         
#   OVERRUN_ERROR  integral  1     'd0                         
#   PARITY_ERROR   integral  1     'd0                         
#   THR[0]         integral  8     'd7                         
#   LCR            integral  8     'd3                         
#   MCR            integral  8     'd0                         
#   MSR            integral  8     'd0                         
#   LSR            integral  8     'b0                         
#   FCR            integral  8     'd6                         
#   IIR            integral  8     'd0                         
#   IER            integral  8     'd1                         
#   DL1            integral  8     'd0                         
#   DL2            integral  8     'd0                         
#   wb_dat32_o     integral  32    'b11000000000000000100000000
# -------------------------------------------------------------
# 
# -------------------------------------------------------------
# Name             Type      Size  Value                       
# -------------------------------------------------------------
# xtn_h            xtn       -     @1079                       
#   PRESETn        integral  1     1                           
#   PSEL           integral  1     1                           
#   PREADY         integral  1     1                           
#   PENABLE        integral  1     1                           
#   PWDATA         integral  8     'd7                         
#   PADDR          integral  3     'd0                         
#   PWRITE         integral  1     1                           
#   PRDATA         integral  8     'dX                         
#   PSTRB          integral  4     'd1                         
#   PSLVERR        integral  1     'd0                         
#   FRAME_ERROR    integral  1     'd0                         
#   OVERRUN_ERROR  integral  1     'd0                         
#   PARITY_ERROR   integral  1     'd0                         
#   THR[0]         integral  8     'd7                         
#   LCR            integral  8     'd3                         
#   MCR            integral  8     'd0                         
#   MSR            integral  8     'd0                         
#   LSR            integral  8     'b0                         
#   FCR            integral  8     'd6                         
#   IIR            integral  8     'd0                         
#   IER            integral  8     'd1                         
#   DL1            integral  8     'd0                         
#   DL2            integral  8     'd0                         
#   wb_dat32_o     integral  32    'b11000000000000000100000000
# -------------------------------------------------------------
# UVM_INFO ../agt_top/mon.sv(93) @ 35000: uvm_test_top.env_h.agt_top_h.agt_h[1].mon_h [mon] received data 
#  -------------------------------------------------------------
# Name             Type      Size  Value                       
# -------------------------------------------------------------
# xtn_h            xtn       -     @1073                       
#   PRESETn        integral  1     1                           
#   PSEL           integral  1     1                           
#   PREADY         integral  1     1                           
#   PENABLE        integral  1     1                           
#   PWDATA         integral  8     'd3                         
#   PADDR          integral  3     'd3                         
#   PWRITE         integral  1     1                           
#   PRDATA         integral  8     128                         
#   PSTRB          integral  4     'd1                         
#   PSLVERR        integral  1     'd0                         
#   FRAME_ERROR    integral  1     'd0                         
#   OVERRUN_ERROR  integral  1     'd0                         
#   PARITY_ERROR   integral  1     'd0                         
#   LCR            integral  8     'd3                         
#   MCR            integral  8     'd0                         
#   MSR            integral  8     'd0                         
#   LSR            integral  8     'b0                         
#   FCR            integral  8     'd0                         
#   IIR            integral  8     'd0                         
#   IER            integral  8     'd0                         
#   DL1            integral  8     'd0                         
#   DL2            integral  8     'd0                         
#   wb_dat32_o     integral  32    'b11000000000000000000000000
# -------------------------------------------------------------
# 
# UVM_INFO ../agt_top/mon.sv(93) @ 43000: uvm_test_top.env_h.agt_top_h.agt_h[1].mon_h [mon] received data 
#  -------------------------------------------------------------
# Name             Type      Size  Value                       
# -------------------------------------------------------------
# xtn_h            xtn       -     @1073                       
#   PRESETn        integral  1     1                           
#   PSEL           integral  1     1                           
#   PREADY         integral  1     1                           
#   PENABLE        integral  1     1                           
#   PWDATA         integral  8     'd1                         
#   PADDR          integral  3     'd1                         
#   PWRITE         integral  1     1                           
#   PRDATA         integral  8     'd0                         
#   PSTRB          integral  4     'd1                         
#   PSLVERR        integral  1     'd0                         
#   FRAME_ERROR    integral  1     'd0                         
#   OVERRUN_ERROR  integral  1     'd0                         
#   PARITY_ERROR   integral  1     'd0                         
#   LCR            integral  8     'd3                         
#   MCR            integral  8     'd0                         
#   MSR            integral  8     'd0                         
#   LSR            integral  8     'b0                         
#   FCR            integral  8     'd0                         
#   IIR            integral  8     'd0                         
#   IER            integral  8     'd1                         
#   DL1            integral  8     'd0                         
#   DL2            integral  8     'd0                         
#   wb_dat32_o     integral  32    'b11000000000000000100000000
# -------------------------------------------------------------
# 
# UVM_INFO ../agt_top/mon.sv(93) @ 51000: uvm_test_top.env_h.agt_top_h.agt_h[1].mon_h [mon] received data 
#  -------------------------------------------------------------
# Name             Type      Size  Value                       
# -------------------------------------------------------------
# xtn_h            xtn       -     @1073                       
#   PRESETn        integral  1     1                           
#   PSEL           integral  1     1                           
#   PREADY         integral  1     1                           
#   PENABLE        integral  1     1                           
#   PWDATA         integral  8     'd6                         
#   PADDR          integral  3     'd2                         
#   PWRITE         integral  1     1                           
#   PRDATA         integral  8     193                         
#   PSTRB          integral  4     'd1                         
#   PSLVERR        integral  1     'd0                         
#   FRAME_ERROR    integral  1     'd0                         
#   OVERRUN_ERROR  integral  1     'd0                         
#   PARITY_ERROR   integral  1     'd0                         
#   LCR            integral  8     'd3                         
#   MCR            integral  8     'd0                         
#   MSR            integral  8     'd0                         
#   LSR            integral  8     'b0                         
#   FCR            integral  8     'd6                         
#   IIR            integral  8     'd0                         
#   IER            integral  8     'd1                         
#   DL1            integral  8     'd0                         
#   DL2            integral  8     'd0                         
#   wb_dat32_o     integral  32    'b11000000000000000100000000
# -------------------------------------------------------------
# 
# UVM_INFO ../agt_top/mon.sv(93) @ 59000: uvm_test_top.env_h.agt_top_h.agt_h[1].mon_h [mon] received data 
#  -------------------------------------------------------------
# Name             Type      Size  Value                       
# -------------------------------------------------------------
# xtn_h            xtn       -     @1073                       
#   PRESETn        integral  1     1                           
#   PSEL           integral  1     1                           
#   PREADY         integral  1     1                           
#   PENABLE        integral  1     1                           
#   PWDATA         integral  8     'd10                        
#   PADDR          integral  3     'd0                         
#   PWRITE         integral  1     1                           
#   PRDATA         integral  8     'dX                         
#   PSTRB          integral  4     'd1                         
#   PSLVERR        integral  1     'd0                         
#   FRAME_ERROR    integral  1     'd0                         
#   OVERRUN_ERROR  integral  1     'd0                         
#   PARITY_ERROR   integral  1     'd0                         
#   THR[0]         integral  8     'd10                        
#   LCR            integral  8     'd3                         
#   MCR            integral  8     'd0                         
#   MSR            integral  8     'd0                         
#   LSR            integral  8     'b0                         
#   FCR            integral  8     'd6                         
#   IIR            integral  8     'd0                         
#   IER            integral  8     'd1                         
#   DL1            integral  8     'd0                         
#   DL2            integral  8     'd0                         
#   wb_dat32_o     integral  32    'b11000000000000000100000000
# -------------------------------------------------------------
# 
# DRIVER The value IIR received from dut is 11000100
# UVM_INFO ../agt_top/mon.sv(93) @ 8151000: uvm_test_top.env_h.agt_top_h.agt_h[1].mon_h [mon] received data 
#  -------------------------------------------------------------
# Name             Type      Size  Value                       
# -------------------------------------------------------------
# xtn_h            xtn       -     @1073                       
#   PRESETn        integral  1     1                           
#   PSEL           integral  1     1                           
#   PREADY         integral  1     1                           
#   PENABLE        integral  1     1                           
#   PWDATA         integral  8     247                         
#   PADDR          integral  3     'd2                         
#   PWRITE         integral  1     'd0                         
#   PRDATA         integral  8     193                         
#   PSTRB          integral  4     'd1                         
#   PSLVERR        integral  1     'd0                         
#   FRAME_ERROR    integral  1     'd0                         
#   OVERRUN_ERROR  integral  1     'd0                         
#   PARITY_ERROR   integral  1     'd0                         
#   THR[0]         integral  8     'd10                        
#   LCR            integral  8     'd3                         
#   MCR            integral  8     'd0                         
#   MSR            integral  8     'd0                         
#   LSR            integral  8     'b0                         
#   FCR            integral  8     'd6                         
#   IIR            integral  8     196                         
#   IER            integral  8     'd1                         
#   DL1            integral  8     'd0                         
#   DL2            integral  8     'd0                         
#   wb_dat32_o     integral  32    'b11110001000000000100000000
# -------------------------------------------------------------
# 
# UVM_INFO ../agt_top/mon.sv(93) @ 8159000: uvm_test_top.env_h.agt_top_h.agt_h[1].mon_h [mon] received data 
#  -------------------------------------------------------------
# Name             Type      Size  Value                       
# -------------------------------------------------------------
# xtn_h            xtn       -     @1073                       
#   PRESETn        integral  1     1                           
#   PSEL           integral  1     1                           
#   PREADY         integral  1     1                           
#   PENABLE        integral  1     1                           
#   PWDATA         integral  8     169                         
#   PADDR          integral  3     'd0                         
#   PWRITE         integral  1     'd0                         
#   PRDATA         integral  8     'd7                         
#   PSTRB          integral  4     'd1                         
#   PSLVERR        integral  1     'd0                         
#   FRAME_ERROR    integral  1     'd0                         
#   OVERRUN_ERROR  integral  1     'd0                         
#   PARITY_ERROR   integral  1     'd0                         
#   THR[0]         integral  8     'd10                        
#   RB[0]          integral  8     'd7                         
#   LCR            integral  8     'd3                         
#   MCR            integral  8     'd0                         
#   MSR            integral  8     'd0                         
#   LSR            integral  8     'b0                         
#   FCR            integral  8     'd6                         
#   IIR            integral  8     196                         
#   IER            integral  8     'd1                         
#   DL1            integral  8     'd0                         
#   DL2            integral  8     'd0                         
#   wb_dat32_o     integral  32    'b11110001000000000100000000
# -------------------------------------------------------------
# 
# DRIVER The value IIR received from dut is 11000100
# UVM_INFO ../agt_top/mon.sv(93) @ 8497500: uvm_test_top.env_h.agt_top_h.agt_h[0].mon_h [mon] received data 
#  -------------------------------------------------------------
# Name             Type      Size  Value                       
# -------------------------------------------------------------
# xtn_h            xtn       -     @1079                       
#   PRESETn        integral  1     1                           
#   PSEL           integral  1     1                           
#   PREADY         integral  1     1                           
#   PENABLE        integral  1     1                           
#   PWDATA         integral  8     175                         
#   PADDR          integral  3     'd2                         
#   PWRITE         integral  1     'd0                         
#   PRDATA         integral  8     193                         
#   PSTRB          integral  4     'd1                         
#   PSLVERR        integral  1     'd0                         
#   FRAME_ERROR    integral  1     'd0                         
#   OVERRUN_ERROR  integral  1     'd0                         
#   PARITY_ERROR   integral  1     'd0                         
#   THR[0]         integral  8     'd7                         
#   LCR            integral  8     'd3                         
#   MCR            integral  8     'd0                         
#   MSR            integral  8     'd0                         
#   LSR            integral  8     'b0                         
#   FCR            integral  8     'd6                         
#   IIR            integral  8     196                         
#   IER            integral  8     'd1                         
#   DL1            integral  8     'd0                         
#   DL2            integral  8     'd0                         
#   wb_dat32_o     integral  32    'b11110001000000000100000000
# -------------------------------------------------------------
# 
# -------------------------------------------------------------
# Name             Type      Size  Value                       
# -------------------------------------------------------------
# xtn_h            xtn       -     @1079                       
#   PRESETn        integral  1     1                           
#   PSEL           integral  1     1                           
#   PREADY         integral  1     1                           
#   PENABLE        integral  1     1                           
#   PWDATA         integral  8     175                         
#   PADDR          integral  3     'd2                         
#   PWRITE         integral  1     'd0                         
#   PRDATA         integral  8     193                         
#   PSTRB          integral  4     'd1                         
#   PSLVERR        integral  1     'd0                         
#   FRAME_ERROR    integral  1     'd0                         
#   OVERRUN_ERROR  integral  1     'd0                         
#   PARITY_ERROR   integral  1     'd0                         
#   THR[0]         integral  8     'd7                         
#   LCR            integral  8     'd3                         
#   MCR            integral  8     'd0                         
#   MSR            integral  8     'd0                         
#   LSR            integral  8     'b0                         
#   FCR            integral  8     'd6                         
#   IIR            integral  8     196                         
#   IER            integral  8     'd1                         
#   DL1            integral  8     'd0                         
#   DL2            integral  8     'd0                         
#   wb_dat32_o     integral  32    'b11110001000000000100000000
# -------------------------------------------------------------
# UVM_INFO ../agt_top/mon.sv(93) @ 8501500: uvm_test_top.env_h.agt_top_h.agt_h[0].mon_h [mon] received data 
#  -------------------------------------------------------------
# Name             Type      Size  Value                       
# -------------------------------------------------------------
# xtn_h            xtn       -     @1079                       
#   PRESETn        integral  1     1                           
#   PSEL           integral  1     1                           
#   PREADY         integral  1     1                           
#   PENABLE        integral  1     1                           
#   PWDATA         integral  8     'd87                        
#   PADDR          integral  3     'd0                         
#   PWRITE         integral  1     'd0                         
#   PRDATA         integral  8     'd10                        
#   PSTRB          integral  4     'd1                         
#   PSLVERR        integral  1     'd0                         
#   FRAME_ERROR    integral  1     'd0                         
#   OVERRUN_ERROR  integral  1     'd0                         
#   PARITY_ERROR   integral  1     'd0                         
#   THR[0]         integral  8     'd7                         
#   RB[0]          integral  8     'd10                        
#   LCR            integral  8     'd3                         
#   MCR            integral  8     'd0                         
#   MSR            integral  8     'd0                         
#   LSR            integral  8     'b0                         
#   FCR            integral  8     'd6                         
#   IIR            integral  8     196                         
#   IER            integral  8     'd1                         
#   DL1            integral  8     'd0                         
#   DL2            integral  8     'd0                         
#   wb_dat32_o     integral  32    'b11110001000000000100000000
# -------------------------------------------------------------
# 
# -------------------------------------------------------------
# Name             Type      Size  Value                       
# -------------------------------------------------------------
# xtn_h            xtn       -     @1079                       
#   PRESETn        integral  1     1                           
#   PSEL           integral  1     1                           
#   PREADY         integral  1     1                           
#   PENABLE        integral  1     1                           
#   PWDATA         integral  8     'd87                        
#   PADDR          integral  3     'd0                         
#   PWRITE         integral  1     'd0                         
#   PRDATA         integral  8     'd10                        
#   PSTRB          integral  4     'd1                         
#   PSLVERR        integral  1     'd0                         
#   FRAME_ERROR    integral  1     'd0                         
#   OVERRUN_ERROR  integral  1     'd0                         
#   PARITY_ERROR   integral  1     'd0                         
#   THR[0]         integral  8     'd7                         
#   RB[0]          integral  8     'd10                        
#   LCR            integral  8     'd3                         
#   MCR            integral  8     'd0                         
#   MSR            integral  8     'd0                         
#   LSR            integral  8     'b0                         
#   FCR            integral  8     'd6                         
#   IIR            integral  8     196                         
#   IER            integral  8     'd1                         
#   DL1            integral  8     'd0                         
#   DL2            integral  8     'd0                         
#   wb_dat32_o     integral  32    'b11110001000000000100000000
# -------------------------------------------------------------
# objection drouped
# UVM_INFO verilog_src/uvm-1.1d/src/base/uvm_objection.svh(1267) @ 8501500: reporter [TEST_DONE] 'run' phase is ready to proceed to the 'extract' phase
# The Value In The Tx FIFO in DUT1 is : 7 
# The Value In The Tx FIFO in DUT2 is : 10 
# The Value In The Rx FIFO in DUT1 is : 10 
# The Value In The Rx FIFO in DUT2 is : 7 
# The Value in DUT1 IIR is : 11000100 
# The Value in DUT2 IIR is : 11000100 
# UVM_INFO ../agt_top/scoreboard.sv(186) @ 8501500: uvm_test_top.env_h.sb [scoreboard] Data Match in UART 1 UnSuccessfull
# UVM_INFO ../agt_top/scoreboard.sv(191) @ 8501500: uvm_test_top.env_h.sb [scoreboard] Data Match in UART 2 UnSuccessfull
# UVM_INFO ../agt_top/scoreboard.sv(196) @ 8501500: uvm_test_top.env_h.sb [UART 1] Data Match in UART 1 Successfull
# UVM_INFO ../agt_top/scoreboard.sv(201) @ 8501500: uvm_test_top.env_h.sb [UART 2] Data Match in UART 2 Successfull
# 
# --- UVM Report Summary ---
# 
# ** Report counts by severity
# UVM_INFO :   27
# UVM_WARNING :    0
# UVM_ERROR :    0
# UVM_FATAL :    0
# ** Report counts by id
# [Questa UVM]     2
# [RNTST]     1
# [TEST_DONE]     1
# [UART 1]     1
# [UART 2]     1
# [UVMTOP]     1
# [mon]    18
# [scoreboard]     2
# ** Note: $finish    : C:/questasim64_10.7c/win64/../verilog_src/uvm-1.1d/src/base/uvm_root.svh(430)
#    Time: 85015 ns  Iteration: 67  Instance: /top
# 1
# Break in Task uvm_pkg/uvm_root::run_test at C:/questasim64_10.7c/win64/../verilog_src/uvm-1.1d/src/base/uvm_root.svh line 430
#  exit
# QuestaSim-64 vcover 10.7c Coverage Utility 2018.08 Aug 18 2018
# Start time: 10:45:17 on Apr 28,2026
# vcover report -cvg -details -nocompactcrossbins -codeAll -assert -directive -html uart_cov2 
# End time: 10:45:17 on Apr 28,2026, Elapsed time: 0:00:00
# Errors: 1, Warnings: 0
# ** Error: (vcover-4003) Invalid option '-nocompactcrossbins'.
#        vcover report -html [-htmldir <outdir>] [-verbose] [-code [bcesf(t|x)]] [-assert]
#                            [-cvg] [-instance <pathname>] [-du <du name>] 
#                            [-directive] [-noinstance] [-source] [-details[=abcdefgst]]
#                            [-nodu] [-noframes] [-notestplan] [-nofec] [-noudp]
#                            [-notimestamps] [-nozeroweights] [-noignorebins] [-binrhs]
#                            [-hidecvginsts] [-hidecvginstspi0] [-usecnpm] [-testhitdata[=<int>]] [-testhitdataAll]
#                            [-precision <int>] [-threshH <pct>] [-threshL <pct>] [-summary]
#                            [-stmtaltflow] [-showexcluded] [-showcvggaolpcnt] [-dynamic]
#                            [-servermode] [-stopserver] [-port <number>] [-testdetails] <ucdb_or_coverstore_test>
# 
view_wave1
# dataset open: file not found: wave_file1.wlf
# Load canceled
run -all
# Break key hit
# Break in Module top at ../tb/top.sv line 13
# Saving coverage database on exit...
# End time: 10:50:51 on Apr 28,2026, Elapsed time: 0:06:03
# Errors: 3, Warnings: 1
